Trace,VG,ID
VDS,0.025,0.025
0,+0.000000E+000,+2.800000E-013
1,+1.000000E-002,+5.000000E-014
2,+2.000000E-002,-8.000000E-014
3,+3.000000E-002,+4.000000E-014
4,+4.000000E-002,-6.000000E-014
5,+5.000000E-002,-1.000000E-013
6,+6.000000E-002,-1.100000E-013
7,+7.000000E-002,-8.000000E-014
8,+8.000000E-002,-1.600000E-013
9,+9.000000E-002,-1.600000E-013
10,+1.000000E-001,-1.300000E-013
11,+1.100000E-001,-2.100000E-013
12,+1.200000E-001,-2.000000E-013
13,+1.300000E-001,-2.200000E-013
14,+1.400000E-001,-2.000000E-013
15,+1.500000E-001,-3.200000E-013
16,+1.600000E-001,+1.000000E-013
17,+1.700000E-001,-3.200000E-013
18,+1.800000E-001,-7.900000E-013
19,+1.900000E-001,-3.600000E-013
20,+2.000000E-001,-4.000000E-013
21,+2.100000E-001,-3.100000E-013
22,+2.200000E-001,-4.500000E-013
23,+2.300000E-001,-4.400000E-013
24,+2.400000E-001,-4.000000E-013
25,+2.500000E-001,-4.000000E-013
26,+2.600000E-001,-4.100000E-013
27,+2.700000E-001,-4.600000E-013
28,+2.800000E-001,-4.100000E-013
29,+2.900000E-001,-5.400000E-013
30,+3.000000E-001,-5.600000E-013
31,+3.100000E-001,-5.000000E-013
32,+3.200000E-001,-5.800000E-013
33,+3.300000E-001,-4.500000E-013
34,+3.400000E-001,-6.100000E-013
35,+3.500000E-001,-5.400000E-013
36,+3.600000E-001,-5.600000E-013
37,+3.700000E-001,-6.200000E-013
38,+3.800000E-001,-6.800000E-013
39,+3.900000E-001,-5.900000E-013
40,+4.000000E-001,-6.400000E-013
41,+4.100000E-001,-7.000000E-013
42,+4.200000E-001,-6.900000E-013
43,+4.300000E-001,-6.600000E-013
44,+4.400000E-001,-7.800000E-013
45,+4.500000E-001,-7.200000E-013
46,+4.600000E-001,-7.100000E-013
47,+4.700000E-001,-7.100000E-013
48,+4.800000E-001,-6.200000E-013
49,+4.900000E-001,-4.200000E-013
50,+5.000000E-001,+7.800000E-013
51,+5.100000E-001,+6.850000E-012
52,+5.200000E-001,+2.384000E-011
53,+5.300000E-001,+5.732000E-011
54,+5.400000E-001,+1.785600E-010
55,+5.500000E-001,+5.535500E-010
56,+5.600000E-001,+1.422190E-009
57,+5.700000E-001,+3.044480E-009
58,+5.800000E-001,+5.998450E-009
59,+5.900000E-001,+1.011792E-008
60,+6.000000E-001,+1.463910E-008
61,+6.100000E-001,+1.864520E-008
62,+6.200000E-001,+2.210490E-008
63,+6.300000E-001,+2.841150E-008
64,+6.400000E-001,+3.825020E-008
65,+6.500000E-001,+5.362540E-008
66,+6.600000E-001,+7.734700E-008
67,+6.700000E-001,+1.085196E-007
68,+6.800000E-001,+1.457400E-007
69,+6.900000E-001,+1.906050E-007
70,+7.000000E-001,+2.496790E-007
71,+7.100000E-001,+3.274090E-007
72,+7.200000E-001,+4.324590E-007
73,+7.300000E-001,+5.611490E-007
74,+7.400000E-001,+7.273580E-007
75,+7.500000E-001,+9.346060E-007
76,+7.600000E-001,+1.099910E-006
77,+7.700000E-001,+1.384970E-006
78,+7.800000E-001,+1.727810E-006
79,+7.900000E-001,+2.120040E-006
80,+8.000000E-001,+2.587320E-006
81,+8.100000E-001,+3.166830E-006
82,+8.200000E-001,+3.793540E-006
83,+8.300000E-001,+4.473630E-006
84,+8.400000E-001,+5.267770E-006
85,+8.500000E-001,+6.077530E-006
86,+8.600000E-001,+6.945620E-006
87,+8.700000E-001,+7.870350E-006
88,+8.800000E-001,+8.806050E-006
89,+8.900000E-001,+9.777710E-006
90,+9.000000E-001,+1.084144E-005
91,+9.100000E-001,+1.193540E-005
92,+9.200000E-001,+1.316710E-005
93,+9.300000E-001,+1.444590E-005
94,+9.400000E-001,+1.579530E-005
95,+9.500000E-001,+1.716710E-005
96,+9.600000E-001,+1.860580E-005
97,+9.700000E-001,+2.006410E-005
98,+9.800000E-001,+2.151780E-005
99,+9.900000E-001,+2.295740E-005
100,+1.000000E+000,+2.440540E-005
101,+1.010000E+000,+2.586960E-005
102,+1.020000E+000,+2.743170E-005
103,+1.030000E+000,+2.891750E-005
104,+1.040000E+000,+3.034910E-005
105,+1.050000E+000,+3.191360E-005
106,+1.060000E+000,+3.342240E-005
107,+1.070000E+000,+3.503160E-005
108,+1.080000E+000,+3.661050E-005
109,+1.090000E+000,+3.816910E-005
110,+1.100000E+000,+3.972650E-005
111,+1.110000E+000,+4.126550E-005
112,+1.120000E+000,+4.288230E-005
113,+1.130000E+000,+4.443610E-005
114,+1.140000E+000,+4.600910E-005
115,+1.150000E+000,+4.756640E-005
116,+1.160000E+000,+4.916010E-005
117,+1.170000E+000,+5.071770E-005
118,+1.180000E+000,+5.228960E-005
119,+1.190000E+000,+5.385400E-005
120,+1.200000E+000,+5.542010E-005
121,+1.210000E+000,+5.692940E-005
122,+1.220000E+000,+5.845950E-005
123,+1.230000E+000,+5.999290E-005
124,+1.240000E+000,+6.151720E-005
125,+1.250000E+000,+6.296930E-005
126,+1.260000E+000,+6.443290E-005
127,+1.270000E+000,+6.587530E-005
128,+1.280000E+000,+6.727910E-005
129,+1.290000E+000,+6.873150E-005
130,+1.300000E+000,+7.013980E-005
131,+1.310000E+000,+7.150880E-005
132,+1.320000E+000,+7.292410E-005
133,+1.330000E+000,+7.431790E-005
134,+1.340000E+000,+7.566350E-005
135,+1.350000E+000,+7.702940E-005
136,+1.360000E+000,+7.839580E-005
137,+1.370000E+000,+7.969670E-005
138,+1.380000E+000,+8.101010E-005
139,+1.390000E+000,+8.231050E-005
140,+1.400000E+000,+8.358550E-005
141,+1.410000E+000,+8.486660E-005
142,+1.420000E+000,+8.616170E-005
143,+1.430000E+000,+8.742670E-005
144,+1.440000E+000,+8.866150E-005
145,+1.450000E+000,+8.988220E-005
146,+1.460000E+000,+9.110100E-005
147,+1.470000E+000,+9.229180E-005
148,+1.480000E+000,+9.351940E-005
149,+1.490000E+000,+9.469790E-005
150,+1.500000E+000,+9.581190E-005
