Trace,VG,ID
VDS,0.025,0.025
0,+0.000000E+000,+2.200000E-013
1,+1.000000E-002,+3.500000E-013
2,+2.000000E-002,-2.200000E-013
3,+3.000000E-002,+5.900000E-013
4,+4.000000E-002,-7.700000E-013
5,+5.000000E-002,-1.600000E-013
6,+6.000000E-002,+1.400000E-013
7,+7.000000E-002,-3.400000E-013
8,+8.000000E-002,-3.600000E-013
9,+9.000000E-002,+7.000000E-014
10,+1.000000E-001,-1.700000E-013
11,+1.100000E-001,-7.200000E-013
12,+1.200000E-001,-7.800000E-013
13,+1.300000E-001,-1.500000E-013
14,+1.400000E-001,-7.000000E-014
15,+1.500000E-001,-1.500000E-013
16,+1.600000E-001,-3.600000E-013
17,+1.700000E-001,-8.200000E-013
18,+1.800000E-001,-7.000000E-013
19,+1.900000E-001,-4.600000E-013
20,+2.000000E-001,-4.200000E-013
21,+2.100000E-001,-7.000000E-013
22,+2.200000E-001,-5.300000E-013
23,+2.300000E-001,-6.000000E-013
24,+2.400000E-001,-5.400000E-013
25,+2.500000E-001,-6.100000E-013
26,+2.600000E-001,-5.300000E-013
27,+2.700000E-001,-5.300000E-013
28,+2.800000E-001,-5.400000E-013
29,+2.900000E-001,-6.200000E-013
30,+3.000000E-001,-5.700000E-013
31,+3.100000E-001,-6.200000E-013
32,+3.200000E-001,-6.600000E-013
33,+3.300000E-001,-8.200000E-013
34,+3.400000E-001,-7.400000E-013
35,+3.500000E-001,-6.800000E-013
36,+3.600000E-001,-8.300000E-013
37,+3.700000E-001,-8.000000E-013
38,+3.800000E-001,-7.600000E-013
39,+3.900000E-001,-8.600000E-013
40,+4.000000E-001,-8.300000E-013
41,+4.100000E-001,-1.300000E-013
42,+4.200000E-001,-1.040000E-012
43,+4.300000E-001,-9.100000E-013
44,+4.400000E-001,-8.400000E-013
45,+4.500000E-001,-6.600000E-013
46,+4.600000E-001,-1.070000E-012
47,+4.700000E-001,-1.110000E-012
48,+4.800000E-001,-3.700000E-013
49,+4.900000E-001,-2.400000E-013
50,+5.000000E-001,+4.600000E-013
51,+5.100000E-001,+4.640000E-012
52,+5.200000E-001,+1.386000E-011
53,+5.300000E-001,+3.721000E-011
54,+5.400000E-001,+1.016100E-010
55,+5.500000E-001,+2.674500E-010
56,+5.600000E-001,+6.765400E-010
57,+5.700000E-001,+1.559750E-009
58,+5.800000E-001,+3.024260E-009
59,+5.900000E-001,+5.783420E-009
60,+6.000000E-001,+1.028122E-008
61,+6.100000E-001,+1.747510E-008
62,+6.200000E-001,+2.835100E-008
63,+6.300000E-001,+4.328640E-008
64,+6.400000E-001,+6.304020E-008
65,+6.500000E-001,+8.875250E-008
66,+6.600000E-001,+1.215980E-007
67,+6.700000E-001,+1.638950E-007
68,+6.800000E-001,+2.180640E-007
69,+6.900000E-001,+2.859070E-007
70,+7.000000E-001,+3.747570E-007
71,+7.100000E-001,+4.821240E-007
72,+7.200000E-001,+6.111650E-007
73,+7.300000E-001,+7.673270E-007
74,+7.400000E-001,+9.540910E-007
75,+7.500000E-001,+1.175500E-006
76,+7.600000E-001,+1.439910E-006
77,+7.700000E-001,+1.749340E-006
78,+7.800000E-001,+2.104190E-006
79,+7.900000E-001,+2.518220E-006
80,+8.000000E-001,+2.988010E-006
81,+8.100000E-001,+3.530650E-006
82,+8.200000E-001,+4.131000E-006
83,+8.300000E-001,+4.772310E-006
84,+8.400000E-001,+5.483710E-006
85,+8.500000E-001,+6.248740E-006
86,+8.600000E-001,+7.079270E-006
87,+8.700000E-001,+7.941370E-006
88,+8.800000E-001,+8.840810E-006
89,+8.900000E-001,+9.797740E-006
90,+9.000000E-001,+1.082172E-005
91,+9.100000E-001,+1.188400E-005
92,+9.200000E-001,+1.300430E-005
93,+9.300000E-001,+1.417130E-005
94,+9.400000E-001,+1.540230E-005
95,+9.500000E-001,+1.667800E-005
96,+9.600000E-001,+1.799250E-005
97,+9.700000E-001,+1.933290E-005
98,+9.800000E-001,+2.070820E-005
99,+9.900000E-001,+2.204410E-005
100,+1.000000E+000,+2.347460E-005
101,+1.010000E+000,+2.487580E-005
102,+1.020000E+000,+2.631680E-005
103,+1.030000E+000,+2.776520E-005
104,+1.040000E+000,+2.921880E-005
105,+1.050000E+000,+3.067620E-005
106,+1.060000E+000,+3.217530E-005
107,+1.070000E+000,+3.366200E-005
108,+1.080000E+000,+3.513050E-005
109,+1.090000E+000,+3.660700E-005
110,+1.100000E+000,+3.811280E-005
111,+1.110000E+000,+3.961280E-005
112,+1.120000E+000,+4.109510E-005
113,+1.130000E+000,+4.258330E-005
114,+1.140000E+000,+4.407410E-005
115,+1.150000E+000,+4.554460E-005
116,+1.160000E+000,+4.703770E-005
117,+1.170000E+000,+4.848710E-005
118,+1.180000E+000,+4.995900E-005
119,+1.190000E+000,+5.144390E-005
120,+1.200000E+000,+5.288200E-005
121,+1.210000E+000,+5.436920E-005
122,+1.220000E+000,+5.580120E-005
123,+1.230000E+000,+5.720570E-005
124,+1.240000E+000,+5.860130E-005
125,+1.250000E+000,+6.003360E-005
126,+1.260000E+000,+6.139890E-005
127,+1.270000E+000,+6.278150E-005
128,+1.280000E+000,+6.416320E-005
129,+1.290000E+000,+6.552000E-005
130,+1.300000E+000,+6.680320E-005
131,+1.310000E+000,+6.812150E-005
132,+1.320000E+000,+6.947380E-005
133,+1.330000E+000,+7.076170E-005
134,+1.340000E+000,+7.207130E-005
135,+1.350000E+000,+7.337390E-005
136,+1.360000E+000,+7.462420E-005
137,+1.370000E+000,+7.591450E-005
138,+1.380000E+000,+7.716220E-005
139,+1.390000E+000,+7.839740E-005
140,+1.400000E+000,+7.965700E-005
141,+1.410000E+000,+8.085100E-005
142,+1.420000E+000,+8.206440E-005
143,+1.430000E+000,+8.323010E-005
144,+1.440000E+000,+8.440670E-005
145,+1.450000E+000,+8.559410E-005
146,+1.460000E+000,+8.677300E-005
147,+1.470000E+000,+8.786340E-005
148,+1.480000E+000,+8.900580E-005
149,+1.490000E+000,+9.012810E-005
150,+1.500000E+000,+9.122380E-005
