Trace,VG,ID
VDS,0.025,0.025
0,+0.000000E+000,-2.900000E-013
1,+1.000000E-002,-5.300000E-013
2,+2.000000E-002,-7.000000E-013
3,+3.000000E-002,-8.100000E-013
4,+4.000000E-002,-9.300000E-013
5,+5.000000E-002,-1.090000E-012
6,+6.000000E-002,-1.100000E-012
7,+7.000000E-002,-1.260000E-012
8,+8.000000E-002,-1.390000E-012
9,+9.000000E-002,-1.420000E-012
10,+1.000000E-001,-1.200000E-012
11,+1.100000E-001,-2.120000E-012
12,+1.200000E-001,-1.180000E-012
13,+1.300000E-001,-2.040000E-012
14,+1.400000E-001,-1.820000E-012
15,+1.500000E-001,-1.890000E-012
16,+1.600000E-001,-1.800000E-012
17,+1.700000E-001,-1.780000E-012
18,+1.800000E-001,-1.690000E-012
19,+1.900000E-001,-1.430000E-012
20,+2.000000E-001,-1.020000E-012
21,+2.100000E-001,-5.700000E-013
22,+2.200000E-001,+1.500000E-013
23,+2.300000E-001,+1.170000E-012
24,+2.400000E-001,+2.580000E-012
25,+2.500000E-001,+4.670000E-012
26,+2.600000E-001,+7.760000E-012
27,+2.700000E-001,+1.271000E-011
28,+2.800000E-001,+1.945000E-011
29,+2.900000E-001,+2.949000E-011
30,+3.000000E-001,+4.369000E-011
31,+3.100000E-001,+6.405000E-011
32,+3.200000E-001,+9.326000E-011
33,+3.300000E-001,+1.340000E-010
34,+3.400000E-001,+1.928600E-010
35,+3.500000E-001,+2.748300E-010
36,+3.600000E-001,+3.886000E-010
37,+3.700000E-001,+5.474000E-010
38,+3.800000E-001,+7.337000E-010
39,+3.900000E-001,+9.798400E-010
40,+4.000000E-001,+1.149950E-009
41,+4.100000E-001,+1.950470E-009
42,+4.200000E-001,+2.768160E-009
43,+4.300000E-001,+3.951200E-009
44,+4.400000E-001,+5.597770E-009
45,+4.500000E-001,+7.948060E-009
46,+4.600000E-001,+1.098661E-008
47,+4.700000E-001,+1.348360E-008
48,+4.800000E-001,+1.700600E-008
49,+4.900000E-001,+2.355950E-008
50,+5.000000E-001,+3.205620E-008
51,+5.100000E-001,+4.330500E-008
52,+5.200000E-001,+5.791780E-008
53,+5.300000E-001,+7.685450E-008
54,+5.400000E-001,+1.012956E-007
55,+5.500000E-001,+1.309810E-007
56,+5.600000E-001,+1.700230E-007
57,+5.700000E-001,+2.176550E-007
58,+5.800000E-001,+2.766070E-007
59,+5.900000E-001,+3.484950E-007
60,+6.000000E-001,+4.367760E-007
61,+6.100000E-001,+5.385950E-007
62,+6.200000E-001,+6.600660E-007
63,+6.300000E-001,+8.015090E-007
64,+6.400000E-001,+9.620950E-007
65,+6.500000E-001,+1.159310E-006
66,+6.600000E-001,+1.377020E-006
67,+6.700000E-001,+1.623150E-006
68,+6.800000E-001,+1.901410E-006
69,+6.900000E-001,+2.206430E-006
70,+7.000000E-001,+2.548700E-006
71,+7.100000E-001,+2.910460E-006
72,+7.200000E-001,+3.318760E-006
73,+7.300000E-001,+3.755360E-006
74,+7.400000E-001,+4.217460E-006
75,+7.500000E-001,+4.724190E-006
76,+7.600000E-001,+5.279450E-006
77,+7.700000E-001,+5.860420E-006
78,+7.800000E-001,+6.466730E-006
79,+7.900000E-001,+7.110060E-006
80,+8.000000E-001,+7.780360E-006
81,+8.100000E-001,+8.461060E-006
82,+8.200000E-001,+9.181270E-006
83,+8.300000E-001,+9.925920E-006
84,+8.400000E-001,+1.069950E-005
85,+8.500000E-001,+1.148740E-005
86,+8.600000E-001,+1.232080E-005
87,+8.700000E-001,+1.315510E-005
88,+8.800000E-001,+1.401770E-005
89,+8.900000E-001,+1.489020E-005
90,+9.000000E-001,+1.577750E-005
91,+9.100000E-001,+1.668650E-005
92,+9.200000E-001,+1.760870E-005
93,+9.300000E-001,+1.854310E-005
94,+9.400000E-001,+1.948630E-005
95,+9.500000E-001,+2.045970E-005
96,+9.600000E-001,+2.141000E-005
97,+9.700000E-001,+2.233100E-005
98,+9.800000E-001,+2.331500E-005
99,+9.900000E-001,+2.428690E-005
100,+1.000000E+000,+2.524600E-005
101,+1.010000E+000,+2.622810E-005
102,+1.020000E+000,+2.724530E-005
103,+1.030000E+000,+2.823710E-005
104,+1.040000E+000,+2.922330E-005
105,+1.050000E+000,+3.021910E-005
106,+1.060000E+000,+3.121030E-005
107,+1.070000E+000,+3.213840E-005
108,+1.080000E+000,+3.312410E-005
109,+1.090000E+000,+3.410430E-005
110,+1.100000E+000,+3.505910E-005
111,+1.110000E+000,+3.600870E-005
112,+1.120000E+000,+3.695220E-005
113,+1.130000E+000,+3.792830E-005
114,+1.140000E+000,+3.891840E-005
115,+1.150000E+000,+3.985900E-005
116,+1.160000E+000,+4.078970E-005
117,+1.170000E+000,+4.172580E-005
118,+1.180000E+000,+4.266540E-005
119,+1.190000E+000,+4.361520E-005
120,+1.200000E+000,+4.453970E-005
121,+1.210000E+000,+4.545580E-005
122,+1.220000E+000,+4.637180E-005
123,+1.230000E+000,+4.725500E-005
124,+1.240000E+000,+4.814010E-005
125,+1.250000E+000,+4.902110E-005
126,+1.260000E+000,+4.991030E-005
127,+1.270000E+000,+5.080000E-005
128,+1.280000E+000,+5.166010E-005
129,+1.290000E+000,+5.255040E-005
130,+1.300000E+000,+5.341720E-005
131,+1.310000E+000,+5.423690E-005
132,+1.320000E+000,+5.508540E-005
133,+1.330000E+000,+5.590720E-005
134,+1.340000E+000,+5.674270E-005
135,+1.350000E+000,+5.754800E-005
136,+1.360000E+000,+5.837200E-005
137,+1.370000E+000,+5.918070E-005
138,+1.380000E+000,+5.996970E-005
139,+1.390000E+000,+6.077360E-005
140,+1.400000E+000,+6.154990E-005
141,+1.410000E+000,+6.230580E-005
142,+1.420000E+000,+6.307700E-005
143,+1.430000E+000,+6.384250E-005
144,+1.440000E+000,+6.457070E-005
145,+1.450000E+000,+6.533080E-005
146,+1.460000E+000,+6.607080E-005
147,+1.470000E+000,+6.680120E-005
148,+1.480000E+000,+6.751220E-005
149,+1.490000E+000,+6.823540E-005
150,+1.500000E+000,+6.891460E-005
