Trace,VG,ID
VDS,0.025,0.025
0,+0.000000E+000,+5.030000E-012
1,+1.000000E-002,+5.590000E-012
2,+2.000000E-002,+6.190000E-012
3,+3.000000E-002,+7.940000E-012
4,+4.000000E-002,+9.700000E-012
5,+5.000000E-002,+1.266000E-011
6,+6.000000E-002,+1.629000E-011
7,+7.000000E-002,+2.100000E-011
8,+8.000000E-002,+2.675000E-011
9,+9.000000E-002,+3.487000E-011
10,+1.000000E-001,+4.544000E-011
11,+1.100000E-001,+5.805000E-011
12,+1.200000E-001,+7.495000E-011
13,+1.300000E-001,+9.597000E-011
14,+1.400000E-001,+1.247700E-010
15,+1.500000E-001,+1.626400E-010
16,+1.600000E-001,+2.038800E-010
17,+1.700000E-001,+2.602400E-010
18,+1.800000E-001,+3.316900E-010
19,+1.900000E-001,+4.248600E-010
20,+2.000000E-001,+5.406700E-010
21,+2.100000E-001,+6.899600E-010
22,+2.200000E-001,+8.726000E-010
23,+2.300000E-001,+1.098430E-009
24,+2.400000E-001,+1.406780E-009
25,+2.500000E-001,+1.777290E-009
26,+2.600000E-001,+2.232400E-009
27,+2.700000E-001,+2.811710E-009
28,+2.800000E-001,+3.555550E-009
29,+2.900000E-001,+4.364790E-009
30,+3.000000E-001,+5.527690E-009
31,+3.100000E-001,+6.959240E-009
32,+3.200000E-001,+8.786210E-009
33,+3.300000E-001,+1.104244E-008
34,+3.400000E-001,+1.388040E-008
35,+3.500000E-001,+1.739440E-008
36,+3.600000E-001,+2.156240E-008
37,+3.700000E-001,+2.694190E-008
38,+3.800000E-001,+3.328700E-008
39,+3.900000E-001,+4.119860E-008
40,+4.000000E-001,+5.039870E-008
41,+4.100000E-001,+6.185480E-008
42,+4.200000E-001,+7.561110E-008
43,+4.300000E-001,+8.836010E-008
44,+4.400000E-001,+1.114488E-007
45,+4.500000E-001,+1.311080E-007
46,+4.600000E-001,+1.584210E-007
47,+4.700000E-001,+1.958130E-007
48,+4.800000E-001,+2.412640E-007
49,+4.900000E-001,+2.839790E-007
50,+5.000000E-001,+3.417620E-007
51,+5.100000E-001,+4.193190E-007
52,+5.200000E-001,+4.942310E-007
53,+5.300000E-001,+5.886630E-007
54,+5.400000E-001,+6.963950E-007
55,+5.500000E-001,+8.178000E-007
56,+5.600000E-001,+9.552360E-007
57,+5.700000E-001,+1.110635E-006
58,+5.800000E-001,+1.282060E-006
59,+5.900000E-001,+1.479320E-006
60,+6.000000E-001,+1.685090E-006
61,+6.100000E-001,+1.921670E-006
62,+6.200000E-001,+2.175690E-006
63,+6.300000E-001,+2.447630E-006
64,+6.400000E-001,+2.745060E-006
65,+6.500000E-001,+3.070930E-006
66,+6.600000E-001,+3.396310E-006
67,+6.700000E-001,+3.764840E-006
68,+6.800000E-001,+4.141390E-006
69,+6.900000E-001,+4.543150E-006
70,+7.000000E-001,+4.962620E-006
71,+7.100000E-001,+5.411000E-006
72,+7.200000E-001,+5.867820E-006
73,+7.300000E-001,+6.349360E-006
74,+7.400000E-001,+6.833560E-006
75,+7.500000E-001,+7.345060E-006
76,+7.600000E-001,+7.875750E-006
77,+7.700000E-001,+8.428910E-006
78,+7.800000E-001,+8.979860E-006
79,+7.900000E-001,+9.553470E-006
80,+8.000000E-001,+1.014193E-005
81,+8.100000E-001,+1.073690E-005
82,+8.200000E-001,+1.136045E-005
83,+8.300000E-001,+1.198140E-005
84,+8.400000E-001,+1.262540E-005
85,+8.500000E-001,+1.325580E-005
86,+8.600000E-001,+1.390620E-005
87,+8.700000E-001,+1.455970E-005
88,+8.800000E-001,+1.521650E-005
89,+8.900000E-001,+1.588420E-005
90,+9.000000E-001,+1.655820E-005
91,+9.100000E-001,+1.723710E-005
92,+9.200000E-001,+1.793270E-005
93,+9.300000E-001,+1.859900E-005
94,+9.400000E-001,+1.924820E-005
95,+9.500000E-001,+1.994670E-005
96,+9.600000E-001,+2.063050E-005
97,+9.700000E-001,+2.134340E-005
98,+9.800000E-001,+2.202610E-005
99,+9.900000E-001,+2.271120E-005
100,+1.000000E+000,+2.339980E-005
101,+1.010000E+000,+2.407780E-005
102,+1.020000E+000,+2.475400E-005
103,+1.030000E+000,+2.544930E-005
104,+1.040000E+000,+2.614580E-005
105,+1.050000E+000,+2.679640E-005
106,+1.060000E+000,+2.749020E-005
107,+1.070000E+000,+2.816060E-005
108,+1.080000E+000,+2.885400E-005
109,+1.090000E+000,+2.950290E-005
110,+1.100000E+000,+3.019480E-005
111,+1.110000E+000,+3.087260E-005
112,+1.120000E+000,+3.153380E-005
113,+1.130000E+000,+3.219510E-005
114,+1.140000E+000,+3.284240E-005
115,+1.150000E+000,+3.347180E-005
116,+1.160000E+000,+3.412020E-005
117,+1.170000E+000,+3.473430E-005
118,+1.180000E+000,+3.536700E-005
119,+1.190000E+000,+3.602370E-005
120,+1.200000E+000,+3.666740E-005
121,+1.210000E+000,+3.731030E-005
122,+1.220000E+000,+3.793930E-005
123,+1.230000E+000,+3.856780E-005
124,+1.240000E+000,+3.918220E-005
125,+1.250000E+000,+3.980500E-005
126,+1.260000E+000,+4.039650E-005
127,+1.270000E+000,+4.099480E-005
128,+1.280000E+000,+4.159750E-005
129,+1.290000E+000,+4.217860E-005
130,+1.300000E+000,+4.277640E-005
131,+1.310000E+000,+4.337040E-005
132,+1.320000E+000,+4.394920E-005
133,+1.330000E+000,+4.453390E-005
134,+1.340000E+000,+4.509080E-005
135,+1.350000E+000,+4.565280E-005
136,+1.360000E+000,+4.620780E-005
137,+1.370000E+000,+4.676960E-005
138,+1.380000E+000,+4.732780E-005
139,+1.390000E+000,+4.789860E-005
140,+1.400000E+000,+4.844210E-005
141,+1.410000E+000,+4.898250E-005
142,+1.420000E+000,+4.949420E-005
143,+1.430000E+000,+5.006560E-005
144,+1.440000E+000,+5.057090E-005
145,+1.450000E+000,+5.110320E-005
146,+1.460000E+000,+5.160400E-005
147,+1.470000E+000,+5.212320E-005
148,+1.480000E+000,+5.262990E-005
149,+1.490000E+000,+5.312140E-005
150,+1.500000E+000,+5.360780E-005
